irun(64): 15.20-s051: (c) Copyright 1995-2018 Cadence Design Systems, Inc.
TOOL:	irun(64)	15.20-s051: Started on Mar 16, 2019 at 01:12:25 IST
irun
	-access +rwc
	-f compile_list.f
		./../../axi_top_rtl/AXI4_SLAVE_WITH_TOP/1.AXI4_Slave_Write_Address.sv
		./../../axi_top_rtl/AXI4_SLAVE_WITH_TOP/2.AXI4_Slave_Write_Data.sv
		./../../axi_top_rtl/AXI4_SLAVE_WITH_TOP/3.AXI4_Slave_Write_Response.sv
		./../../axi_top_rtl/AXI4_SLAVE_WITH_TOP/4.AXI4_Slave_Read_Address.sv
		./../../axi_top_rtl/AXI4_SLAVE_WITH_TOP/5.AXI4_Slave_Read_Data.sv
		./../../axi_top_rtl/AXI4_SLAVE_WITH_TOP/axi4_Slave_top.sv
		./../UVME/uvm_pkg/test_pkg.sv
		./../UVME/top/axi_top.sv
		./../UVME/top/axi_interface.sv
	-uvmhome CDNS-1.1d
	+UVM_TESTNAME=axi_multiple_outstanding_address_test
Recompiling... reason: file '../UVME/agent/axi_driver.sv' is newer than expected.
	expected: Sat Mar 16 00:55:03 2019
	actual:   Sat Mar 16 01:10:39 2019
Compiling UVM packages (uvm_pkg.sv cdns_uvm_pkg.sv) using uvmhome location /tools/cadence/INCISIVE152/tools/methodology/UVM/CDNS-1.1d
file: ./../UVME/uvm_pkg/test_pkg.sv
	package worklib.test_pkg:sv
		errors: 0, warnings: 0
file: ./../UVME/top/axi_top.sv
	module worklib.axi_top:sv
		errors: 0, warnings: 0
		Caching library 'worklib' ....... Done
	Elaborating the design hierarchy:
    axi4_slave_top dut(
                     |
ncelab: *W,CUVWSI (../UVME/top/axi_top.sv,13|21): 1 input port was not connected:
ncelab: (/home/vv2trainee39/Desktop/Prajwal/AXI4_slave/axi_top_rtl/AXI4_SLAVE_WITH_TOP/axi4_Slave_top.sv,27): burst_length

      ) write_data_dut (
                     |
ncelab: *W,CUVWSI (/home/vv2trainee39/Desktop/Prajwal/AXI4_slave/axi_top_rtl/AXI4_SLAVE_WITH_TOP/axi4_Slave_top.sv,90|21): 1 input port was not connected:
ncelab: (/home/vv2trainee39/Desktop/Prajwal/AXI4_slave/axi_top_rtl/AXI4_SLAVE_WITH_TOP/2.AXI4_Slave_Write_Data.sv,17): wid

      ) read_data (
                |
ncelab: *W,CUVWSI (/home/vv2trainee39/Desktop/Prajwal/AXI4_slave/axi_top_rtl/AXI4_SLAVE_WITH_TOP/axi4_Slave_top.sv,143|16): 1 input port was not connected:
ncelab: (/home/vv2trainee39/Desktop/Prajwal/AXI4_slave/axi_top_rtl/AXI4_SLAVE_WITH_TOP/5.AXI4_Slave_Read_Data.sv,19): data_in

	Top level design units:
		uvm_pkg
		cdns_uvmapi
		cdns_assert2uvm_pkg
		cdns_uvm_pkg
		test_pkg
		axi_top
ncelab: *W,DSEMEL: This SystemVerilog design will be simulated as per IEEE 1800-2009 SystemVerilog simulation semantics. Use -disable_sem2009 option for turning off SV 2009 simulation semantics.
	Building instance overlay tables: .................... Done
	Generating native compiled code:
		worklib.axi_top:sv <0x455ece43>
			streams: 103, words: 143844
		worklib.test_pkg:sv <0x0e35dbb9>
			streams:  25, words: 30585
		worklib.test_pkg:sv <0x25f12f7e>
			streams:   0, words:     0
		worklib.uvm_pkg:sv <0x00c36370>
			streams:  26, words: 43704
		worklib.uvm_pkg:sv <0x01ab6a8f>
			streams:  26, words: 50140
		worklib.uvm_pkg:sv <0x06faa7a6>
			streams:  26, words: 57866
		worklib.uvm_pkg:sv <0x094292aa>
			streams:  24, words: 39857
		worklib.uvm_pkg:sv <0x0a40b633>
			streams:  24, words: 39119
		worklib.uvm_pkg:sv <0x13d15a43>
			streams:  26, words: 51926
		worklib.uvm_pkg:sv <0x19405ecf>
			streams:  32, words: 78782
		worklib.uvm_pkg:sv <0x1cab2139>
			streams:  24, words: 66312
		worklib.uvm_pkg:sv <0x1d1568e3>
			streams:  24, words: 32045
		worklib.uvm_pkg:sv <0x1fc3adaa>
			streams:  24, words: 39119
		worklib.uvm_pkg:sv <0x24ee91cf>
			streams:  52, words: 110988
		worklib.uvm_pkg:sv <0x2b6060d4>
			streams:  26, words: 50140
		worklib.uvm_pkg:sv <0x3b6c6795>
			streams:  24, words: 39857
		worklib.uvm_pkg:sv <0x3c1bb6eb>
			streams:  24, words: 39857
		worklib.uvm_pkg:sv <0x3f13bdc0>
			streams:  24, words: 39857
		worklib.uvm_pkg:sv <0x4278f051>
			streams:  26, words: 65126
		worklib.uvm_pkg:sv <0x448fa504>
			streams:  26, words: 51926
		worklib.uvm_pkg:sv <0x4942b0a2>
			streams:  24, words: 39857
		worklib.uvm_pkg:sv <0x4e2d44cb>
			streams:  26, words: 57776
		worklib.uvm_pkg:sv <0x4eca6217>
			streams:  26, words: 57776
		worklib.uvm_pkg:sv <0x53ff4cff>
			streams:  24, words: 39857
		worklib.uvm_pkg:sv <0x5607208c>
			streams:  26, words: 57866
		worklib.uvm_pkg:sv <0x5b5ce786>
			streams:  35, words: 43826
		worklib.uvm_pkg:sv <0x6343eeb9>
			streams: 311, words: 501863
		worklib.uvm_pkg:sv <0x69b5beee>
			streams:  24, words: 35945
		worklib.uvm_pkg:sv <0x76970200>
			streams:  24, words: 39857
		worklib.uvm_pkg:sv <0x79e30828>
			streams:  24, words: 31596
		worklib.uvm_pkg:sv <0x7e4a1224>
			streams:  24, words: 203555
	Building instance specific data structures.
	Loading native compiled code:     .................... Done
	Design hierarchy summary:
		                       Instances  Unique
		Modules:                       7       7
		Interfaces:                    1       1
		Verilog packages:              5       5
		Registers:                 14939   10750
		Scalar wires:                 36       -
		Vectored wires:               38       -
		Named events:                  4      12
		Always blocks:                23      23
		Initial blocks:              345     177
		Clocking blocks:               1       1
		Clocking items:               30      30
		Parallel blocks:              26      27
		Cont. assignments:             2       2
		Pseudo assignments:           46      46
		Assertions:                    2       2
		SV Class declarations:       218     332
		SV Class specializations:    421     421
	Writing initial simulation snapshot: worklib.axi_top:sv
Loading snapshot worklib.axi_top:sv .................... Done
SVSEED default: 1
ncsim: *W,DSEM2009: This SystemVerilog design is simulated as per IEEE 1800-2009 SystemVerilog simulation semantics. Use -disable_sem2009 option for turning off SV 2009 simulation semantics.
ncsim> source /tools/cadence/INCISIVE152/tools/inca/files/ncsimrc
ncsim> source /tools/cadence/INCISIVE152/tools/methodology/UVM/CDNS-1.1d/additions/sv/files/tcl/uvm_sim.tcl
ncsim> run
----------------------------------------------------------------
CDNS-UVM-1.1d (15.20-s051)
(C) 2007-2013 Mentor Graphics Corporation
(C) 2007-2013 Cadence Design Systems, Inc.
(C) 2006-2013 Synopsys, Inc.
(C) 2011-2013 Cypress Semiconductor Corp.
----------------------------------------------------------------

  ***********       IMPORTANT RELEASE NOTES         ************

  You are using a version of the UVM library that has been compiled
  with `UVM_NO_DEPRECATED undefined.
  See http://www.eda.org/svdb/view.php?id=3313 for more details.

  You are using a version of the UVM library that has been compiled
  with `UVM_OBJECT_MUST_HAVE_CONSTRUCTOR undefined.
  See http://www.eda.org/svdb/view.php?id=3770 for more details.

      (Specify +UVM_NO_RELNOTES to turn off this notice)

UVM_INFO ./../UVME/test/axi_base_test.sv(13) @ 0: uvm_test_top [axi_multiple_outstanding_address_test] Inside Constuctor!
UVM_INFO @ 0: reporter [RNTST] Running test axi_multiple_outstanding_address_test...
UVM_INFO ./../UVME/env/axi_env.sv(14) @ 0: uvm_test_top.env_inst [env_class] Inside constructor!
UVM_INFO ./../UVME/test/axi_base_test.sv(21) @ 0: uvm_test_top [axi_multiple_outstanding_address_test] Inside Build Phase!
UVM_INFO ./../UVME/agent/axi_agent.sv(12) @ 0: uvm_test_top.env_inst.agent_inst [agent_class] Inside constructor!
UVM_INFO ./../UVME/env/axi_env.sv(25) @ 0: uvm_test_top.env_inst [env_class] Inside Build Phase!
UVM_INFO ./../UVME/agent/axi_driver.sv(14) @ 0: uvm_test_top.env_inst.agent_inst.driver_inst [Driver_class] Inside Constructor!
UVM_INFO ./../UVME/agent/axi_seqr.sv(9) @ 0: uvm_test_top.env_inst.agent_inst.seqr_inst [Sequencer_class] Inside Constructor!
UVM_INFO ./../UVME/agent/axi_agent.sv(21) @ 0: uvm_test_top.env_inst.agent_inst [agent_class] Inside Build Phase!
UVM_INFO ./../UVME/agent/axi_driver.sv(27) @ 0: uvm_test_top.env_inst.agent_inst.driver_inst [Driver_class] Inside Build Phase!
UVM_INFO ./../UVME/agent/axi_agent.sv(28) @ 0: uvm_test_top.env_inst.agent_inst [agent_class] Inside Connect Phase!
UVM_INFO ./../UVME/env/axi_env.sv(33) @ 0: uvm_test_top.env_inst [env_class] Inside connect Phase!
UVM_INFO @ 0: reporter [UVMTOP] UVM testbench topology:
-----------------------------------------------------------------------------
Name                       Type                                   Size  Value
-----------------------------------------------------------------------------
uvm_test_top               axi_multiple_outstanding_address_test  -     @2717
  env_inst                 axi_env                                -     @2800
    agent_inst             axi_agent                              -     @2886
      driver_inst          axi_driver                             -     @2926
        rsp_port           uvm_analysis_port                      -     @3026
        seq_item_port      uvm_seq_item_pull_port                 -     @2975
      mon_inst             axi_monitor                            -     @3062
        rd_analysis_port   uvm_analysis_port                      -     @3160
        wr_analysis_port   uvm_analysis_port                      -     @3111
      seqr_inst            axi_seqr                               -     @3140
        rsp_export         uvm_analysis_export                    -     @3248
        seq_item_export    uvm_seq_item_pull_imp                  -     @3796
        arbitration_queue  array                                  0     -    
        lock_queue         array                                  0     -    
        num_last_reqs      integral                               32    'd1  
        num_last_rsps      integral                               32    'd1  
    sb                     axi_scoreboard                         -     @2849
      rd_export            uvm_analysis_imp                       -     @3947
      wr_export            uvm_analysis_imp                       -     @3898
-----------------------------------------------------------------------------

UVM_INFO ./../UVME/test/axi_multiple_outstanding_address_test.sv(20) @ 0: uvm_test_top [uvm_test_top] it test increment_burst first line
UVM_INFO ./../UVME/test/axi_multiple_outstanding_address_test.sv(23) @ 0: uvm_test_top [axi_multiple_outstanding_address_test] inside the increment_burst test
UVM_INFO ./../UVME/sequence/axi_multiple_outstanding_address_seq.sv(33) @ 0: uvm_test_top.env_inst.agent_inst.seqr_inst@@multiple_outstanding_address_inst [axi_multiple_outstanding_address_seq] wrapped_burst_seq: inside body
UVM_INFO ./../UVME/test/axi_multiple_outstanding_address_test.sv(29) @ 5: uvm_test_top [axi_multiple_outstanding_address_test] increment_burst scenario 26 is competed
UVM_INFO ./../UVME/sequence/axi_multiple_outstanding_address_seq.sv(33) @ 5: uvm_test_top.env_inst.agent_inst.seqr_inst@@multiple_outstanding_address_inst [axi_multiple_outstanding_address_seq] wrapped_burst_seq: inside body
UVM_INFO ./../UVME/agent/axi_monitor.sv(44) @ 35: uvm_test_top.env_inst.agent_inst.mon_inst [MONITOR - AW_CHANNEL] AWID=0x9, AWADDR=0xb3daba6f, AWLEN=2, AWSIZE=2, AWBURST=1
UVM_INFO ./../UVME/agent/axi_driver.sv(101) @ 35: uvm_test_top.env_inst.agent_inst.driver_inst [AXI_WRITE_DRIVER] AWREADY=1
UVM_INFO ./../UVME/agent/axi_monitor.sv(57) @ 45: uvm_test_top.env_inst.agent_inst.mon_inst [MONITOR - W_CHANNEL] WDATA=0x'{'h3dcfcd73}, WSTRB=0x15, WLAST=0x0
UVM_INFO ./../UVME/agent/axi_monitor.sv(70) @ 75: uvm_test_top.env_inst.agent_inst.mon_inst [MONITOR - B_CHANNEL] BRESP=0x0, BID=0x0
UVM_INFO ./../UVME/env/axi_scoreboard.sv(66) @ 75: uvm_test_top.env_inst.sb [SCOREBOARD] WRITE Address: AWADDR=0xb3daba6f, AWID=0x9, AWLEN=2, AWSIZE=2, AWBURST=1
UVM_INFO ./../UVME/env/axi_scoreboard.sv(70) @ 75: uvm_test_top.env_inst.sb [SCOREBOARD] WRITE Data: WDATA=0x'{'h3dcfcd73}, WSTRB=0xf, WLAST=0
UVM_INFO ./../UVME/env/axi_scoreboard.sv(74) @ 75: uvm_test_top.env_inst.sb [SCOREBOARD] WRITE Response: BID=0x0, BRESP=0x0
UVM_INFO ./../UVME/sequence/axi_multiple_outstanding_address_seq.sv(86) @ 85: uvm_test_top.env_inst.agent_inst.seqr_inst@@multiple_outstanding_address_inst [SEQ] Running scenario = 27
UVM_INFO ./../UVME/sequence/axi_multiple_outstanding_address_seq.sv(95) @ 85: uvm_test_top.env_inst.agent_inst.seqr_inst@@multiple_outstanding_address_inst [SEQ] Randomized AWADDR = 0x'{'hb3daba6f, 'h0, 'h0, 'h0}
UVM_INFO ./../UVME/sequence/axi_multiple_outstanding_address_seq.sv(96) @ 85: uvm_test_top.env_inst.agent_inst.seqr_inst@@multiple_outstanding_address_inst [i] i value = 0
UVM_INFO ./../UVME/sequence/axi_multiple_outstanding_address_seq.sv(104) @ 85: uvm_test_top.env_inst.agent_inst.seqr_inst@@multiple_outstanding_address_inst [SEQ] AWADDR = 0xb3daba6f
UVM_INFO ./../UVME/agent/axi_monitor.sv(44) @ 115: uvm_test_top.env_inst.agent_inst.mon_inst [MONITOR - AW_CHANNEL] AWID=0x9, AWADDR=0x68b1331c, AWLEN=2, AWSIZE=2, AWBURST=1
UVM_INFO ./../UVME/agent/axi_driver.sv(101) @ 115: uvm_test_top.env_inst.agent_inst.driver_inst [AXI_WRITE_DRIVER] AWREADY=1
UVM_INFO ./../UVME/agent/axi_monitor.sv(57) @ 125: uvm_test_top.env_inst.agent_inst.mon_inst [MONITOR - W_CHANNEL] WDATA=0x'{'h58b1630b}, WSTRB=0x15, WLAST=0x0
UVM_INFO ./../UVME/agent/axi_monitor.sv(70) @ 155: uvm_test_top.env_inst.agent_inst.mon_inst [MONITOR - B_CHANNEL] BRESP=0x0, BID=0x9
UVM_INFO ./../UVME/env/axi_scoreboard.sv(66) @ 155: uvm_test_top.env_inst.sb [SCOREBOARD] WRITE Address: AWADDR=0x68b1331c, AWID=0x9, AWLEN=2, AWSIZE=2, AWBURST=1
UVM_INFO ./../UVME/env/axi_scoreboard.sv(70) @ 155: uvm_test_top.env_inst.sb [SCOREBOARD] WRITE Data: WDATA=0x'{'h58b1630b}, WSTRB=0xf, WLAST=0
UVM_INFO ./../UVME/env/axi_scoreboard.sv(74) @ 155: uvm_test_top.env_inst.sb [SCOREBOARD] WRITE Response: BID=0x9, BRESP=0x0
UVM_INFO ./../UVME/sequence/axi_multiple_outstanding_address_seq.sv(86) @ 165: uvm_test_top.env_inst.agent_inst.seqr_inst@@multiple_outstanding_address_inst [SEQ] Running scenario = 27
UVM_INFO ./../UVME/sequence/axi_multiple_outstanding_address_seq.sv(95) @ 165: uvm_test_top.env_inst.agent_inst.seqr_inst@@multiple_outstanding_address_inst [SEQ] Randomized AWADDR = 0x'{'hb3daba6f, 'h68b1331c, 'h0, 'h0}
UVM_INFO ./../UVME/sequence/axi_multiple_outstanding_address_seq.sv(96) @ 165: uvm_test_top.env_inst.agent_inst.seqr_inst@@multiple_outstanding_address_inst [i] i value = 1
UVM_INFO ./../UVME/sequence/axi_multiple_outstanding_address_seq.sv(99) @ 165: uvm_test_top.env_inst.agent_inst.seqr_inst@@multiple_outstanding_address_inst [SEQ] rand_wr_addr[0] = 0xb3daba6f
UVM_INFO ./../UVME/sequence/axi_multiple_outstanding_address_seq.sv(104) @ 165: uvm_test_top.env_inst.agent_inst.seqr_inst@@multiple_outstanding_address_inst [SEQ] AWADDR = 0x68b1331c
UVM_INFO ./../UVME/agent/axi_monitor.sv(44) @ 195: uvm_test_top.env_inst.agent_inst.mon_inst [MONITOR - AW_CHANNEL] AWID=0x8, AWADDR=0xc33c5332, AWLEN=2, AWSIZE=2, AWBURST=1
UVM_INFO ./../UVME/agent/axi_driver.sv(101) @ 195: uvm_test_top.env_inst.agent_inst.driver_inst [AXI_WRITE_DRIVER] AWREADY=1
UVM_INFO ./../UVME/agent/axi_monitor.sv(57) @ 205: uvm_test_top.env_inst.agent_inst.mon_inst [MONITOR - W_CHANNEL] WDATA=0x'{'hd4dac958}, WSTRB=0x15, WLAST=0x0
UVM_INFO ./../UVME/agent/axi_monitor.sv(70) @ 235: uvm_test_top.env_inst.agent_inst.mon_inst [MONITOR - B_CHANNEL] BRESP=0x1, BID=0x9
UVM_INFO ./../UVME/env/axi_scoreboard.sv(66) @ 235: uvm_test_top.env_inst.sb [SCOREBOARD] WRITE Address: AWADDR=0xc33c5332, AWID=0x8, AWLEN=2, AWSIZE=2, AWBURST=1
UVM_INFO ./../UVME/env/axi_scoreboard.sv(70) @ 235: uvm_test_top.env_inst.sb [SCOREBOARD] WRITE Data: WDATA=0x'{'hd4dac958}, WSTRB=0xf, WLAST=0
UVM_INFO ./../UVME/env/axi_scoreboard.sv(74) @ 235: uvm_test_top.env_inst.sb [SCOREBOARD] WRITE Response: BID=0x9, BRESP=0x1
UVM_INFO ./../UVME/sequence/axi_multiple_outstanding_address_seq.sv(86) @ 245: uvm_test_top.env_inst.agent_inst.seqr_inst@@multiple_outstanding_address_inst [SEQ] Running scenario = 27
UVM_INFO ./../UVME/sequence/axi_multiple_outstanding_address_seq.sv(95) @ 245: uvm_test_top.env_inst.agent_inst.seqr_inst@@multiple_outstanding_address_inst [SEQ] Randomized AWADDR = 0x'{'hb3daba6f, 'h68b1331c, 'hc33c5332, 'h0}
UVM_INFO ./../UVME/sequence/axi_multiple_outstanding_address_seq.sv(96) @ 245: uvm_test_top.env_inst.agent_inst.seqr_inst@@multiple_outstanding_address_inst [i] i value = 2
UVM_INFO ./../UVME/sequence/axi_multiple_outstanding_address_seq.sv(99) @ 245: uvm_test_top.env_inst.agent_inst.seqr_inst@@multiple_outstanding_address_inst [SEQ] rand_wr_addr[0] = 0xb3daba6f
UVM_INFO ./../UVME/sequence/axi_multiple_outstanding_address_seq.sv(99) @ 245: uvm_test_top.env_inst.agent_inst.seqr_inst@@multiple_outstanding_address_inst [SEQ] rand_wr_addr[1] = 0x68b1331c
UVM_INFO ./../UVME/sequence/axi_multiple_outstanding_address_seq.sv(104) @ 245: uvm_test_top.env_inst.agent_inst.seqr_inst@@multiple_outstanding_address_inst [SEQ] AWADDR = 0xc33c5332
UVM_INFO ./../UVME/test/axi_multiple_outstanding_address_test.sv(35) @ 245: uvm_test_top [axi_multiple_outstanding_address_test] increment_burst scenario 27 is competed
UVM_INFO ./../UVME/sequence/axi_multiple_outstanding_address_seq.sv(33) @ 245: uvm_test_top.env_inst.agent_inst.seqr_inst@@multiple_outstanding_address_inst [axi_multiple_outstanding_address_seq] wrapped_burst_seq: inside body
UVM_INFO ./../UVME/agent/axi_monitor.sv(91) @ 275: uvm_test_top.env_inst.agent_inst.mon_inst [MONITOR - AR_CHANNEL] ARID=0x9, ARADDR=0xb3daba6f, ARLEN=2, ARSIZE=2, ARBURST=1
UVM_INFO ./../UVME/agent/axi_driver.sv(188) @ 275: uvm_test_top.env_inst.agent_inst.driver_inst [AXI_READ_DRIVER] ARREADY=1
UVM_INFO ./../UVME/agent/axi_monitor.sv(104) @ 285: uvm_test_top.env_inst.agent_inst.mon_inst [MONITOR - R_CHANNEL] RDATA=0x0, RRESP=0x0, RLAST=0x0
UVM_INFO ./../UVME/env/axi_scoreboard.sv(94) @ 285: uvm_test_top.env_inst.sb [SCOREBOARD] READ Address: ARADDR=0xb3daba6f, ARID=0x9, ARLEN=2, ARSIZE=2, ARBURST=1
UVM_INFO ./../UVME/env/axi_scoreboard.sv(98) @ 285: uvm_test_top.env_inst.sb [SCOREBOARD] READ Data: RDATA=0x0, RRESP=0x0, RLAST=0x0
UVM_INFO ./../UVME/sequence/axi_multiple_outstanding_address_seq.sv(145) @ 335: uvm_test_top.env_inst.agent_inst.seqr_inst@@multiple_outstanding_address_inst [i] i value = 0
UVM_INFO ./../UVME/agent/axi_monitor.sv(91) @ 365: uvm_test_top.env_inst.agent_inst.mon_inst [MONITOR - AR_CHANNEL] ARID=0x9, ARADDR=0x68b1331c, ARLEN=2, ARSIZE=2, ARBURST=1
UVM_INFO ./../UVME/agent/axi_driver.sv(188) @ 365: uvm_test_top.env_inst.agent_inst.driver_inst [AXI_READ_DRIVER] ARREADY=1
UVM_INFO ./../UVME/agent/axi_monitor.sv(104) @ 375: uvm_test_top.env_inst.agent_inst.mon_inst [MONITOR - R_CHANNEL] RDATA=0x0, RRESP=0x2, RLAST=0x0
UVM_INFO ./../UVME/env/axi_scoreboard.sv(94) @ 375: uvm_test_top.env_inst.sb [SCOREBOARD] READ Address: ARADDR=0x68b1331c, ARID=0x9, ARLEN=2, ARSIZE=2, ARBURST=1
UVM_INFO ./../UVME/env/axi_scoreboard.sv(98) @ 375: uvm_test_top.env_inst.sb [SCOREBOARD] READ Data: RDATA=0x0, RRESP=0x2, RLAST=0x0
UVM_INFO ./../UVME/sequence/axi_multiple_outstanding_address_seq.sv(145) @ 425: uvm_test_top.env_inst.agent_inst.seqr_inst@@multiple_outstanding_address_inst [i] i value = 1
UVM_INFO ./../UVME/agent/axi_monitor.sv(91) @ 455: uvm_test_top.env_inst.agent_inst.mon_inst [MONITOR - AR_CHANNEL] ARID=0x8, ARADDR=0xc33c5332, ARLEN=2, ARSIZE=2, ARBURST=1
UVM_INFO ./../UVME/agent/axi_driver.sv(188) @ 455: uvm_test_top.env_inst.agent_inst.driver_inst [AXI_READ_DRIVER] ARREADY=1
UVM_INFO ./../UVME/agent/axi_monitor.sv(104) @ 465: uvm_test_top.env_inst.agent_inst.mon_inst [MONITOR - R_CHANNEL] RDATA=0x0, RRESP=0x1, RLAST=0x0
UVM_INFO ./../UVME/env/axi_scoreboard.sv(94) @ 465: uvm_test_top.env_inst.sb [SCOREBOARD] READ Address: ARADDR=0xc33c5332, ARID=0x8, ARLEN=2, ARSIZE=2, ARBURST=1
UVM_INFO ./../UVME/env/axi_scoreboard.sv(98) @ 465: uvm_test_top.env_inst.sb [SCOREBOARD] READ Data: RDATA=0x0, RRESP=0x1, RLAST=0x0
UVM_INFO ./../UVME/sequence/axi_multiple_outstanding_address_seq.sv(145) @ 515: uvm_test_top.env_inst.agent_inst.seqr_inst@@multiple_outstanding_address_inst [i] i value = 2
UVM_INFO ./../UVME/test/axi_multiple_outstanding_address_test.sv(43) @ 515: uvm_test_top [axi_multiple_outstanding_address_test] increment_burst scenario 28 is competed
UVM_INFO /tools/cadence/INCISIVE152/tools/methodology/UVM/CDNS-1.1d/sv/src/base/uvm_objection.svh(1268) @ 1515: reporter [TEST_DONE] 'run' phase is ready to proceed to the 'extract' phase
UVM_INFO ./../UVME/env/axi_scoreboard.sv(149) @ 1515: uvm_test_top.env_inst.sb [CHECKER - AW/AR_CHANNEL] PASS: ADDR=0xb3daba6f, ID=0x9
UVM_INFO ./../UVME/env/axi_scoreboard.sv(157) @ 1515: uvm_test_top.env_inst.sb [CHECKER - AW/AR_CHANNEL] PASS: LEN=2, SIZE=2, BURST=1
UVM_ERROR ./../UVME/env/axi_scoreboard.sv(187) @ 1515: uvm_test_top.env_inst.sb [CHECKER - W/R_CHANNEL] DATA LENGTH MISMATCH: WR=3, RD=1
UVM_ERROR ./../UVME/env/axi_scoreboard.sv(200) @ 1515: uvm_test_top.env_inst.sb [CHECKER - B_CHANNEL] BVALID or BREADY not asserted during response
UVM_ERROR ./../UVME/env/axi_scoreboard.sv(213) @ 1515: uvm_test_top.env_inst.sb [CHECKER - R_CHANNEL] RVALID, RREADY, or RLAST not asserted
UVM_INFO ./../UVME/env/axi_scoreboard.sv(149) @ 1515: uvm_test_top.env_inst.sb [CHECKER - AW/AR_CHANNEL] PASS: ADDR=0x68b1331c, ID=0x9
UVM_INFO ./../UVME/env/axi_scoreboard.sv(157) @ 1515: uvm_test_top.env_inst.sb [CHECKER - AW/AR_CHANNEL] PASS: LEN=2, SIZE=2, BURST=1
UVM_ERROR ./../UVME/env/axi_scoreboard.sv(187) @ 1515: uvm_test_top.env_inst.sb [CHECKER - W/R_CHANNEL] DATA LENGTH MISMATCH: WR=3, RD=1
UVM_ERROR ./../UVME/env/axi_scoreboard.sv(200) @ 1515: uvm_test_top.env_inst.sb [CHECKER - B_CHANNEL] BVALID or BREADY not asserted during response
UVM_ERROR ./../UVME/env/axi_scoreboard.sv(213) @ 1515: uvm_test_top.env_inst.sb [CHECKER - R_CHANNEL] RVALID, RREADY, or RLAST not asserted
UVM_INFO ./../UVME/env/axi_scoreboard.sv(149) @ 1515: uvm_test_top.env_inst.sb [CHECKER - AW/AR_CHANNEL] PASS: ADDR=0xc33c5332, ID=0x8
UVM_INFO ./../UVME/env/axi_scoreboard.sv(157) @ 1515: uvm_test_top.env_inst.sb [CHECKER - AW/AR_CHANNEL] PASS: LEN=2, SIZE=2, BURST=1
UVM_ERROR ./../UVME/env/axi_scoreboard.sv(187) @ 1515: uvm_test_top.env_inst.sb [CHECKER - W/R_CHANNEL] DATA LENGTH MISMATCH: WR=3, RD=1
UVM_ERROR ./../UVME/env/axi_scoreboard.sv(200) @ 1515: uvm_test_top.env_inst.sb [CHECKER - B_CHANNEL] BVALID or BREADY not asserted during response
UVM_ERROR ./../UVME/env/axi_scoreboard.sv(213) @ 1515: uvm_test_top.env_inst.sb [CHECKER - R_CHANNEL] RVALID, RREADY, or RLAST not asserted

--- UVM Report catcher Summary ---


Number of demoted UVM_FATAL reports  :    0
Number of demoted UVM_ERROR reports  :    0
Number of demoted UVM_WARNING reports:    0
Number of caught UVM_FATAL reports   :    0
Number of caught UVM_ERROR reports   :    0
Number of caught UVM_WARNING reports :    0

--- UVM Report Summary ---

** Report counts by severity
UVM_INFO :   82
UVM_WARNING :    0
UVM_ERROR :    9
UVM_FATAL :    0
** Report counts by id
[AXI_READ_DRIVER]     3
[AXI_WRITE_DRIVER]     3
[CHECKER - AW/AR_CHANNEL]     6
[CHECKER - B_CHANNEL]     3
[CHECKER - R_CHANNEL]     3
[CHECKER - W/R_CHANNEL]     3
[Driver_class]     2
[MONITOR - AR_CHANNEL]     3
[MONITOR - AW_CHANNEL]     3
[MONITOR - B_CHANNEL]     3
[MONITOR - R_CHANNEL]     3
[MONITOR - W_CHANNEL]     3
[RNTST]     1
[SCOREBOARD]    15
[SEQ]    12
[Sequencer_class]     1
[TEST_DONE]     1
[UVMTOP]     1
[agent_class]     3
[axi_multiple_outstanding_address_seq]     3
[axi_multiple_outstanding_address_test]     6
[env_class]     3
[i]     6
[uvm_test_top]     1
Simulation complete via $finish(1) at time 1515 NS + 45
/tools/cadence/INCISIVE152/tools/methodology/UVM/CDNS-1.1d/sv/src/base/uvm_root.svh:457     $finish;
ncsim> exit
TOOL:	irun(64)	15.20-s051: Exiting on Mar 16, 2019 at 01:12:28 IST  (total: 00:00:03)
