irun(64): 15.20-s051: (c) Copyright 1995-2018 Cadence Design Systems, Inc.
TOOL:	irun(64)	15.20-s051: Started on Mar 15, 2019 at 07:02:47 IST
irun
	-access +rwc
	-f compile_list.f
		./../../axi_top_rtl/AXI4_SLAVE_WITH_TOP/1.AXI4_Slave_Write_Address.sv
		./../../axi_top_rtl/AXI4_SLAVE_WITH_TOP/2.AXI4_Slave_Write_Data.sv
		./../../axi_top_rtl/AXI4_SLAVE_WITH_TOP/3.AXI4_Slave_Write_Response.sv
		./../../axi_top_rtl/AXI4_SLAVE_WITH_TOP/4.AXI4_Slave_Read_Address.sv
		./../../axi_top_rtl/AXI4_SLAVE_WITH_TOP/5.AXI4_Slave_Read_Data.sv
		./../../axi_top_rtl/AXI4_SLAVE_WITH_TOP/axi4_Slave_top.sv
		./../UVME/uvm_pkg/test_pkg.sv
		./../UVME/top/axi_top.sv
		./../UVME/top/axi_interface.sv
	-uvmhome CDNS-1.1d
	+UVM_TESTNAME=axi_multiple_outstanding_address_test
Recompiling... reason: file '../UVME/env/axi_scoreboard.sv' is newer than expected.
	expected: Fri Mar 15 07:00:50 2019
	actual:   Fri Mar 15 07:02:45 2019
Compiling UVM packages (uvm_pkg.sv cdns_uvm_pkg.sv) using uvmhome location /tools/cadence/INCISIVE152/tools/methodology/UVM/CDNS-1.1d
file: ./../UVME/uvm_pkg/test_pkg.sv
	package worklib.test_pkg:sv
		errors: 0, warnings: 0
file: ./../UVME/top/axi_top.sv
	module worklib.axi_top:sv
		errors: 0, warnings: 0
		Caching library 'worklib' ....... Done
	Elaborating the design hierarchy:
    axi4_slave_top dut(
                     |
ncelab: *W,CUVWSI (../UVME/top/axi_top.sv,13|21): 1 input port was not connected:
ncelab: (/home/vv2trainee39/Desktop/Prajwal/AXI4_slave/axi_top_rtl/AXI4_SLAVE_WITH_TOP/axi4_Slave_top.sv,27): burst_length

      ) write_data_dut (
                     |
ncelab: *W,CUVWSI (/home/vv2trainee39/Desktop/Prajwal/AXI4_slave/axi_top_rtl/AXI4_SLAVE_WITH_TOP/axi4_Slave_top.sv,90|21): 1 input port was not connected:
ncelab: (/home/vv2trainee39/Desktop/Prajwal/AXI4_slave/axi_top_rtl/AXI4_SLAVE_WITH_TOP/2.AXI4_Slave_Write_Data.sv,17): wid

      ) read_data (
                |
ncelab: *W,CUVWSI (/home/vv2trainee39/Desktop/Prajwal/AXI4_slave/axi_top_rtl/AXI4_SLAVE_WITH_TOP/axi4_Slave_top.sv,143|16): 1 input port was not connected:
ncelab: (/home/vv2trainee39/Desktop/Prajwal/AXI4_slave/axi_top_rtl/AXI4_SLAVE_WITH_TOP/5.AXI4_Slave_Read_Data.sv,19): data_in

	Top level design units:
		uvm_pkg
		cdns_uvmapi
		cdns_assert2uvm_pkg
		cdns_uvm_pkg
		test_pkg
		axi_top
ncelab: *W,DSEMEL: This SystemVerilog design will be simulated as per IEEE 1800-2009 SystemVerilog simulation semantics. Use -disable_sem2009 option for turning off SV 2009 simulation semantics.
	Building instance overlay tables: .................... Done
	Generating native compiled code:
		worklib.axi_top:sv <0x2a3808f6>
			streams: 103, words: 143804
		worklib.test_pkg:sv <0x25f12f7e>
			streams:   0, words:     0
		worklib.test_pkg:sv <0x32bd45e2>
			streams:  25, words: 30585
		worklib.uvm_pkg:sv <0x00c36370>
			streams:  26, words: 43704
		worklib.uvm_pkg:sv <0x01ab6a8f>
			streams:  26, words: 50140
		worklib.uvm_pkg:sv <0x06a321ac>
			streams:  24, words: 39857
		worklib.uvm_pkg:sv <0x06faa7a6>
			streams:  26, words: 57866
		worklib.uvm_pkg:sv <0x0ca96a9a>
			streams:  24, words: 31596
		worklib.uvm_pkg:sv <0x0fc51268>
			streams:  32, words: 63454
		worklib.uvm_pkg:sv <0x13d15a43>
			streams:  26, words: 51926
		worklib.uvm_pkg:sv <0x19c47d7e>
			streams:  24, words: 39857
		worklib.uvm_pkg:sv <0x20971cd2>
			streams:  24, words: 39857
		worklib.uvm_pkg:sv <0x2b6060d4>
			streams:  26, words: 50140
		worklib.uvm_pkg:sv <0x2ef823f1>
			streams:  24, words: 35945
		worklib.uvm_pkg:sv <0x36372de2>
			streams:  24, words: 39119
		worklib.uvm_pkg:sv <0x448fa504>
			streams:  26, words: 51926
		worklib.uvm_pkg:sv <0x495bdefc>
			streams:  24, words: 39857
		worklib.uvm_pkg:sv <0x4b25ec2c>
			streams:  24, words: 39857
		worklib.uvm_pkg:sv <0x4e2d44cb>
			streams:  26, words: 57776
		worklib.uvm_pkg:sv <0x4eca6217>
			streams:  26, words: 57776
		worklib.uvm_pkg:sv <0x55c3ddb1>
			streams:  52, words: 110988
		worklib.uvm_pkg:sv <0x5607208c>
			streams:  26, words: 57866
		worklib.uvm_pkg:sv <0x57975caa>
			streams:  26, words: 65688
		worklib.uvm_pkg:sv <0x59010d3d>
			streams:  24, words: 53945
		worklib.uvm_pkg:sv <0x5974e850>
			streams:  24, words: 39857
		worklib.uvm_pkg:sv <0x5b5ce786>
			streams:  35, words: 43826
		worklib.uvm_pkg:sv <0x5e284af6>
			streams:  24, words: 39857
		worklib.uvm_pkg:sv <0x61e90608>
			streams:  24, words: 39119
		worklib.uvm_pkg:sv <0x6343eeb9>
			streams: 311, words: 501863
		worklib.uvm_pkg:sv <0x6520f310>
			streams:  24, words: 32045
		worklib.uvm_pkg:sv <0x7e4a1224>
			streams:  24, words: 203555
	Building instance specific data structures.
	Loading native compiled code:     .................... Done
	Design hierarchy summary:
		                       Instances  Unique
		Modules:                       7       7
		Interfaces:                    1       1
		Verilog packages:              5       5
		Registers:                 14934   10745
		Scalar wires:                 36       -
		Vectored wires:               38       -
		Named events:                  4      12
		Always blocks:                23      23
		Initial blocks:              345     177
		Clocking blocks:               1       1
		Clocking items:               30      30
		Parallel blocks:              26      27
		Cont. assignments:             2       2
		Pseudo assignments:           46      46
		Assertions:                    2       2
		SV Class declarations:       218     332
		SV Class specializations:    421     421
	Writing initial simulation snapshot: worklib.axi_top:sv
Loading snapshot worklib.axi_top:sv .................... Done
SVSEED default: 1
ncsim: *W,DSEM2009: This SystemVerilog design is simulated as per IEEE 1800-2009 SystemVerilog simulation semantics. Use -disable_sem2009 option for turning off SV 2009 simulation semantics.
ncsim> source /tools/cadence/INCISIVE152/tools/inca/files/ncsimrc
ncsim> source /tools/cadence/INCISIVE152/tools/methodology/UVM/CDNS-1.1d/additions/sv/files/tcl/uvm_sim.tcl
ncsim> run
----------------------------------------------------------------
CDNS-UVM-1.1d (15.20-s051)
(C) 2007-2013 Mentor Graphics Corporation
(C) 2007-2013 Cadence Design Systems, Inc.
(C) 2006-2013 Synopsys, Inc.
(C) 2011-2013 Cypress Semiconductor Corp.
----------------------------------------------------------------

  ***********       IMPORTANT RELEASE NOTES         ************

  You are using a version of the UVM library that has been compiled
  with `UVM_NO_DEPRECATED undefined.
  See http://www.eda.org/svdb/view.php?id=3313 for more details.

  You are using a version of the UVM library that has been compiled
  with `UVM_OBJECT_MUST_HAVE_CONSTRUCTOR undefined.
  See http://www.eda.org/svdb/view.php?id=3770 for more details.

      (Specify +UVM_NO_RELNOTES to turn off this notice)

UVM_INFO ./../UVME/test/axi_base_test.sv(13) @ 0: uvm_test_top [axi_multiple_outstanding_address_test] Inside Constuctor!
UVM_INFO @ 0: reporter [RNTST] Running test axi_multiple_outstanding_address_test...
UVM_INFO ./../UVME/env/axi_env.sv(14) @ 0: uvm_test_top.env_inst [env_class] Inside constructor!
UVM_INFO ./../UVME/test/axi_base_test.sv(21) @ 0: uvm_test_top [axi_multiple_outstanding_address_test] Inside Build Phase!
UVM_INFO ./../UVME/agent/axi_agent.sv(12) @ 0: uvm_test_top.env_inst.agent_inst [agent_class] Inside constructor!
UVM_INFO ./../UVME/env/axi_env.sv(25) @ 0: uvm_test_top.env_inst [env_class] Inside Build Phase!
UVM_INFO ./../UVME/agent/axi_driver.sv(14) @ 0: uvm_test_top.env_inst.agent_inst.driver_inst [Driver_class] Inside Constructor!
UVM_INFO ./../UVME/agent/axi_seqr.sv(9) @ 0: uvm_test_top.env_inst.agent_inst.seqr_inst [Sequencer_class] Inside Constructor!
UVM_INFO ./../UVME/agent/axi_agent.sv(21) @ 0: uvm_test_top.env_inst.agent_inst [agent_class] Inside Build Phase!
UVM_INFO ./../UVME/agent/axi_driver.sv(27) @ 0: uvm_test_top.env_inst.agent_inst.driver_inst [Driver_class] Inside Build Phase!
UVM_INFO ./../UVME/agent/axi_agent.sv(28) @ 0: uvm_test_top.env_inst.agent_inst [agent_class] Inside Connect Phase!
UVM_INFO ./../UVME/env/axi_env.sv(32) @ 0: uvm_test_top.env_inst [env_class] Inside connect Phase!
UVM_INFO @ 0: reporter [UVMTOP] UVM testbench topology:
-----------------------------------------------------------------------------
Name                       Type                                   Size  Value
-----------------------------------------------------------------------------
uvm_test_top               axi_multiple_outstanding_address_test  -     @2718
  env_inst                 axi_env                                -     @2801
    agent_inst             axi_agent                              -     @2887
      driver_inst          axi_driver                             -     @2927
        rsp_port           uvm_analysis_port                      -     @3027
        seq_item_port      uvm_seq_item_pull_port                 -     @2976
      mon_inst             axi_monitor                            -     @3063
        analysis_port      uvm_analysis_port                      -     @3112
      seqr_inst            axi_seqr                               -     @3092
        rsp_export         uvm_analysis_export                    -     @3200
        seq_item_export    uvm_seq_item_pull_imp                  -     @3748
        arbitration_queue  array                                  0     -    
        lock_queue         array                                  0     -    
        num_last_reqs      integral                               32    'd1  
        num_last_rsps      integral                               32    'd1  
    sb                     axi_scoreboard                         -     @2850
      rd_export            uvm_analysis_imp                       -     @3898
      wr_export            uvm_analysis_imp                       -     @3849
-----------------------------------------------------------------------------

UVM_INFO ./../UVME/test/axi_multiple_outstanding_address_test.sv(20) @ 0: uvm_test_top [uvm_test_top] it test increment_burst first line
UVM_INFO ./../UVME/test/axi_multiple_outstanding_address_test.sv(23) @ 0: uvm_test_top [axi_multiple_outstanding_address_test] inside the increment_burst test
UVM_INFO ./../UVME/sequence/axi_multiple_outstanding_address_seq.sv(33) @ 0: uvm_test_top.env_inst.agent_inst.seqr_inst@@multiple_outstanding_address_inst [axi_multiple_outstanding_address_seq] wrapped_burst_seq: inside body
UVM_INFO ./../UVME/test/axi_multiple_outstanding_address_test.sv(29) @ 5: uvm_test_top [axi_multiple_outstanding_address_test] increment_burst scenario 26 is competed
UVM_INFO ./../UVME/sequence/axi_multiple_outstanding_address_seq.sv(33) @ 5: uvm_test_top.env_inst.agent_inst.seqr_inst@@multiple_outstanding_address_inst [axi_multiple_outstanding_address_seq] wrapped_burst_seq: inside body
UVM_INFO ./../UVME/agent/axi_monitor.sv(47) @ 35: uvm_test_top.env_inst.agent_inst.mon_inst [AW_CHANNEL] AWID=0x9, AWADDR=0xb3daba6f, AWLEN=2, AWSIZE=2, AWBURST=1
UVM_INFO ./../UVME/agent/axi_driver.sv(101) @ 35: uvm_test_top.env_inst.agent_inst.driver_inst [AXI_WRITE_DRIVER] AWREADY=1
UVM_INFO ./../UVME/agent/axi_monitor.sv(61) @ 55: uvm_test_top.env_inst.agent_inst.mon_inst [W_CHANNEL] WDATA=0x'{'h3dcfcd73}, WSTRB=0x15, WLAST=0x0
UVM_INFO ./../UVME/agent/axi_monitor.sv(63) @ 55: uvm_test_top.env_inst.agent_inst.mon_inst [W_CHANNEL] WDATA queue size = 1
UVM_INFO ./../UVME/agent/axi_monitor.sv(61) @ 65: uvm_test_top.env_inst.agent_inst.mon_inst [W_CHANNEL] WDATA=0x'{'h3dcfcd73, 'hd6eb0868}, WSTRB=0x15, WLAST=0x0
UVM_INFO ./../UVME/agent/axi_monitor.sv(63) @ 65: uvm_test_top.env_inst.agent_inst.mon_inst [W_CHANNEL] WDATA queue size = 2
UVM_INFO ./../UVME/agent/axi_monitor.sv(61) @ 75: uvm_test_top.env_inst.agent_inst.mon_inst [W_CHANNEL] WDATA=0x'{'h3dcfcd73, 'hd6eb0868, 'hacd881d2}, WSTRB=0x15, WLAST=0x1
UVM_INFO ./../UVME/agent/axi_monitor.sv(63) @ 75: uvm_test_top.env_inst.agent_inst.mon_inst [W_CHANNEL] WDATA queue size = 3
UVM_INFO ./../UVME/agent/axi_monitor.sv(70) @ 85: uvm_test_top.env_inst.agent_inst.mon_inst [B_CHANNEL] BRESP=0x0
UVM_INFO ./../UVME/env/axi_scoreboard.sv(94) @ 85: uvm_test_top.env_inst.sb [SCOREBOARD] READ Handshake: ARVALID=0xx, ARREADY=0xx, RVALID=x, RREADY=x
UVM_INFO ./../UVME/env/axi_scoreboard.sv(98) @ 85: uvm_test_top.env_inst.sb [SCOREBOARD] READ Transaction: ARADDR=0xx, ARID=0xx, ARLEN=x, ARSIZE=x, ARBURST=x, RRESP=0xx, RDATA=0xx, RLAST=0xx
UVM_INFO ./../UVME/env/axi_scoreboard.sv(94) @ 85: uvm_test_top.env_inst.sb [SCOREBOARD] READ Handshake: ARVALID=0xx, ARREADY=0xx, RVALID=x, RREADY=x
UVM_INFO ./../UVME/env/axi_scoreboard.sv(98) @ 85: uvm_test_top.env_inst.sb [SCOREBOARD] READ Transaction: ARADDR=0xx, ARID=0xx, ARLEN=x, ARSIZE=x, ARBURST=x, RRESP=0xx, RDATA=0xx, RLAST=0xx
UVM_INFO ./../UVME/sequence/axi_multiple_outstanding_address_seq.sv(86) @ 85: uvm_test_top.env_inst.agent_inst.seqr_inst@@multiple_outstanding_address_inst [SEQ] Running scenario = 27
            `uvm_info("SEQ", $sformatf("Randomized AWADDR = 0x%0h", rand_wr_addr), UVM_MEDIUM)
                                                                                             |
ncsim: *E,SYSFMT (../UVME/sequence/axi_multiple_outstanding_address_seq.sv,95|93): $psprintf/$sformatf: Invalid format specifier in this context %0h.
UVM_INFO ./../UVME/sequence/axi_multiple_outstanding_address_seq.sv(95) @ 85: uvm_test_top.env_inst.agent_inst.seqr_inst@@multiple_outstanding_address_inst [SEQ] Randomized AWADDR = 0x
UVM_INFO ./../UVME/sequence/axi_multiple_outstanding_address_seq.sv(96) @ 85: uvm_test_top.env_inst.agent_inst.seqr_inst@@multiple_outstanding_address_inst [i] i value = 0
UVM_INFO ./../UVME/sequence/axi_multiple_outstanding_address_seq.sv(104) @ 85: uvm_test_top.env_inst.agent_inst.seqr_inst@@multiple_outstanding_address_inst [SEQ] AWADDR = 0xb3daba6f
UVM_INFO ./../UVME/agent/axi_monitor.sv(47) @ 115: uvm_test_top.env_inst.agent_inst.mon_inst [AW_CHANNEL] AWID=0x9, AWADDR=0x68b1331c, AWLEN=2, AWSIZE=2, AWBURST=1
UVM_INFO ./../UVME/agent/axi_driver.sv(101) @ 115: uvm_test_top.env_inst.agent_inst.driver_inst [AXI_WRITE_DRIVER] AWREADY=1
UVM_INFO ./../UVME/agent/axi_monitor.sv(61) @ 135: uvm_test_top.env_inst.agent_inst.mon_inst [W_CHANNEL] WDATA=0x'{'h58b1630b}, WSTRB=0x15, WLAST=0x0
UVM_INFO ./../UVME/agent/axi_monitor.sv(63) @ 135: uvm_test_top.env_inst.agent_inst.mon_inst [W_CHANNEL] WDATA queue size = 1
UVM_INFO ./../UVME/agent/axi_monitor.sv(61) @ 145: uvm_test_top.env_inst.agent_inst.mon_inst [W_CHANNEL] WDATA=0x'{'h58b1630b, 'h8247661a}, WSTRB=0x15, WLAST=0x0
UVM_INFO ./../UVME/agent/axi_monitor.sv(63) @ 145: uvm_test_top.env_inst.agent_inst.mon_inst [W_CHANNEL] WDATA queue size = 2
UVM_INFO ./../UVME/agent/axi_monitor.sv(61) @ 155: uvm_test_top.env_inst.agent_inst.mon_inst [W_CHANNEL] WDATA=0x'{'h58b1630b, 'h8247661a, 'h10003701}, WSTRB=0x15, WLAST=0x1
UVM_INFO ./../UVME/agent/axi_monitor.sv(63) @ 155: uvm_test_top.env_inst.agent_inst.mon_inst [W_CHANNEL] WDATA queue size = 3
UVM_INFO ./../UVME/agent/axi_monitor.sv(70) @ 165: uvm_test_top.env_inst.agent_inst.mon_inst [B_CHANNEL] BRESP=0x0
UVM_INFO ./../UVME/env/axi_scoreboard.sv(94) @ 165: uvm_test_top.env_inst.sb [SCOREBOARD] READ Handshake: ARVALID=0xx, ARREADY=0xx, RVALID=x, RREADY=x
UVM_INFO ./../UVME/env/axi_scoreboard.sv(98) @ 165: uvm_test_top.env_inst.sb [SCOREBOARD] READ Transaction: ARADDR=0xx, ARID=0xx, ARLEN=x, ARSIZE=x, ARBURST=x, RRESP=0xx, RDATA=0xx, RLAST=0xx
UVM_INFO ./../UVME/env/axi_scoreboard.sv(94) @ 165: uvm_test_top.env_inst.sb [SCOREBOARD] READ Handshake: ARVALID=0xx, ARREADY=0xx, RVALID=x, RREADY=x
UVM_INFO ./../UVME/env/axi_scoreboard.sv(98) @ 165: uvm_test_top.env_inst.sb [SCOREBOARD] READ Transaction: ARADDR=0xx, ARID=0xx, ARLEN=x, ARSIZE=x, ARBURST=x, RRESP=0xx, RDATA=0xx, RLAST=0xx
UVM_INFO ./../UVME/sequence/axi_multiple_outstanding_address_seq.sv(86) @ 165: uvm_test_top.env_inst.agent_inst.seqr_inst@@multiple_outstanding_address_inst [SEQ] Running scenario = 27
            `uvm_info("SEQ", $sformatf("Randomized AWADDR = 0x%0h", rand_wr_addr), UVM_MEDIUM)
                                                                                             |
ncsim: *E,SYSFMT (../UVME/sequence/axi_multiple_outstanding_address_seq.sv,95|93): $psprintf/$sformatf: Invalid format specifier in this context %0h.
UVM_INFO ./../UVME/sequence/axi_multiple_outstanding_address_seq.sv(95) @ 165: uvm_test_top.env_inst.agent_inst.seqr_inst@@multiple_outstanding_address_inst [SEQ] Randomized AWADDR = 0x
UVM_INFO ./../UVME/sequence/axi_multiple_outstanding_address_seq.sv(96) @ 165: uvm_test_top.env_inst.agent_inst.seqr_inst@@multiple_outstanding_address_inst [i] i value = 1
UVM_INFO ./../UVME/sequence/axi_multiple_outstanding_address_seq.sv(99) @ 165: uvm_test_top.env_inst.agent_inst.seqr_inst@@multiple_outstanding_address_inst [SEQ] rand_wr_addr[0] = 0xb3daba6f
UVM_INFO ./../UVME/sequence/axi_multiple_outstanding_address_seq.sv(104) @ 165: uvm_test_top.env_inst.agent_inst.seqr_inst@@multiple_outstanding_address_inst [SEQ] AWADDR = 0x68b1331c
UVM_INFO ./../UVME/agent/axi_monitor.sv(47) @ 195: uvm_test_top.env_inst.agent_inst.mon_inst [AW_CHANNEL] AWID=0x8, AWADDR=0xc33c5332, AWLEN=2, AWSIZE=2, AWBURST=1
UVM_INFO ./../UVME/agent/axi_driver.sv(101) @ 195: uvm_test_top.env_inst.agent_inst.driver_inst [AXI_WRITE_DRIVER] AWREADY=1
UVM_INFO ./../UVME/agent/axi_monitor.sv(61) @ 215: uvm_test_top.env_inst.agent_inst.mon_inst [W_CHANNEL] WDATA=0x'{'hd4dac958}, WSTRB=0x15, WLAST=0x0
UVM_INFO ./../UVME/agent/axi_monitor.sv(63) @ 215: uvm_test_top.env_inst.agent_inst.mon_inst [W_CHANNEL] WDATA queue size = 1
UVM_INFO ./../UVME/agent/axi_monitor.sv(61) @ 225: uvm_test_top.env_inst.agent_inst.mon_inst [W_CHANNEL] WDATA=0x'{'hd4dac958, 'hcf222654}, WSTRB=0x15, WLAST=0x0
UVM_INFO ./../UVME/agent/axi_monitor.sv(63) @ 225: uvm_test_top.env_inst.agent_inst.mon_inst [W_CHANNEL] WDATA queue size = 2
UVM_INFO ./../UVME/agent/axi_monitor.sv(61) @ 235: uvm_test_top.env_inst.agent_inst.mon_inst [W_CHANNEL] WDATA=0x'{'hd4dac958, 'hcf222654, 'h9f39920b}, WSTRB=0x15, WLAST=0x1
UVM_INFO ./../UVME/agent/axi_monitor.sv(63) @ 235: uvm_test_top.env_inst.agent_inst.mon_inst [W_CHANNEL] WDATA queue size = 3
UVM_INFO ./../UVME/agent/axi_monitor.sv(70) @ 245: uvm_test_top.env_inst.agent_inst.mon_inst [B_CHANNEL] BRESP=0x1
UVM_INFO ./../UVME/env/axi_scoreboard.sv(94) @ 245: uvm_test_top.env_inst.sb [SCOREBOARD] READ Handshake: ARVALID=0xx, ARREADY=0xx, RVALID=x, RREADY=x
UVM_INFO ./../UVME/env/axi_scoreboard.sv(98) @ 245: uvm_test_top.env_inst.sb [SCOREBOARD] READ Transaction: ARADDR=0xx, ARID=0xx, ARLEN=x, ARSIZE=x, ARBURST=x, RRESP=0xx, RDATA=0xx, RLAST=0xx
UVM_INFO ./../UVME/env/axi_scoreboard.sv(94) @ 245: uvm_test_top.env_inst.sb [SCOREBOARD] READ Handshake: ARVALID=0xx, ARREADY=0xx, RVALID=x, RREADY=x
UVM_INFO ./../UVME/env/axi_scoreboard.sv(98) @ 245: uvm_test_top.env_inst.sb [SCOREBOARD] READ Transaction: ARADDR=0xx, ARID=0xx, ARLEN=x, ARSIZE=x, ARBURST=x, RRESP=0xx, RDATA=0xx, RLAST=0xx
UVM_INFO ./../UVME/sequence/axi_multiple_outstanding_address_seq.sv(86) @ 245: uvm_test_top.env_inst.agent_inst.seqr_inst@@multiple_outstanding_address_inst [SEQ] Running scenario = 27
            `uvm_info("SEQ", $sformatf("Randomized AWADDR = 0x%0h", rand_wr_addr), UVM_MEDIUM)
                                                                                             |
ncsim: *E,SYSFMT (../UVME/sequence/axi_multiple_outstanding_address_seq.sv,95|93): $psprintf/$sformatf: Invalid format specifier in this context %0h.
UVM_INFO ./../UVME/sequence/axi_multiple_outstanding_address_seq.sv(95) @ 245: uvm_test_top.env_inst.agent_inst.seqr_inst@@multiple_outstanding_address_inst [SEQ] Randomized AWADDR = 0x
UVM_INFO ./../UVME/sequence/axi_multiple_outstanding_address_seq.sv(96) @ 245: uvm_test_top.env_inst.agent_inst.seqr_inst@@multiple_outstanding_address_inst [i] i value = 2
UVM_INFO ./../UVME/sequence/axi_multiple_outstanding_address_seq.sv(99) @ 245: uvm_test_top.env_inst.agent_inst.seqr_inst@@multiple_outstanding_address_inst [SEQ] rand_wr_addr[0] = 0xb3daba6f
UVM_INFO ./../UVME/sequence/axi_multiple_outstanding_address_seq.sv(99) @ 245: uvm_test_top.env_inst.agent_inst.seqr_inst@@multiple_outstanding_address_inst [SEQ] rand_wr_addr[1] = 0x68b1331c
UVM_INFO ./../UVME/sequence/axi_multiple_outstanding_address_seq.sv(104) @ 245: uvm_test_top.env_inst.agent_inst.seqr_inst@@multiple_outstanding_address_inst [SEQ] AWADDR = 0xc33c5332
UVM_INFO ./../UVME/test/axi_multiple_outstanding_address_test.sv(35) @ 245: uvm_test_top [axi_multiple_outstanding_address_test] increment_burst scenario 27 is competed
UVM_INFO ./../UVME/sequence/axi_multiple_outstanding_address_seq.sv(33) @ 245: uvm_test_top.env_inst.agent_inst.seqr_inst@@multiple_outstanding_address_inst [axi_multiple_outstanding_address_seq] wrapped_burst_seq: inside body
UVM_INFO ./../UVME/agent/axi_monitor.sv(93) @ 275: uvm_test_top.env_inst.agent_inst.mon_inst [AR_CHANNEL] ARID=0xb3daba6f, ARADDR=0x9, ARLEN=2, ARSIZE=2, ARBURST=1
UVM_INFO ./../UVME/agent/axi_driver.sv(188) @ 275: uvm_test_top.env_inst.agent_inst.driver_inst [AXI_READ_DRIVER] ARREADY=1
UVM_INFO ./../UVME/agent/axi_monitor.sv(105) @ 295: uvm_test_top.env_inst.agent_inst.mon_inst [R_CHANNEL] RDATA=0x0, RRESP=0x0
UVM_INFO ./../UVME/env/axi_scoreboard.sv(94) @ 295: uvm_test_top.env_inst.sb [SCOREBOARD] READ Handshake: ARVALID=0xx, ARREADY=0xx, RVALID=x, RREADY=x
UVM_INFO ./../UVME/env/axi_scoreboard.sv(98) @ 295: uvm_test_top.env_inst.sb [SCOREBOARD] READ Transaction: ARADDR=0xb3daba6f, ARID=0x9, ARLEN=2, ARSIZE=2, ARBURST=1, RRESP=0x0, RDATA=0x0, RLAST=0xx
UVM_INFO ./../UVME/env/axi_scoreboard.sv(94) @ 295: uvm_test_top.env_inst.sb [SCOREBOARD] READ Handshake: ARVALID=0xx, ARREADY=0xx, RVALID=x, RREADY=x
UVM_INFO ./../UVME/env/axi_scoreboard.sv(98) @ 295: uvm_test_top.env_inst.sb [SCOREBOARD] READ Transaction: ARADDR=0xb3daba6f, ARID=0x9, ARLEN=2, ARSIZE=2, ARBURST=1, RRESP=0x0, RDATA=0x0, RLAST=0xx
UVM_INFO ./../UVME/agent/axi_monitor.sv(105) @ 315: uvm_test_top.env_inst.agent_inst.mon_inst [R_CHANNEL] RDATA=0x0, RRESP=0x1
UVM_INFO ./../UVME/env/axi_scoreboard.sv(94) @ 315: uvm_test_top.env_inst.sb [SCOREBOARD] READ Handshake: ARVALID=0xx, ARREADY=0xx, RVALID=x, RREADY=x
UVM_INFO ./../UVME/env/axi_scoreboard.sv(98) @ 315: uvm_test_top.env_inst.sb [SCOREBOARD] READ Transaction: ARADDR=0xb3daba6f, ARID=0x9, ARLEN=2, ARSIZE=2, ARBURST=1, RRESP=0x1, RDATA=0x0, RLAST=0xx
UVM_INFO ./../UVME/env/axi_scoreboard.sv(94) @ 315: uvm_test_top.env_inst.sb [SCOREBOARD] READ Handshake: ARVALID=0xx, ARREADY=0xx, RVALID=x, RREADY=x
UVM_INFO ./../UVME/env/axi_scoreboard.sv(98) @ 315: uvm_test_top.env_inst.sb [SCOREBOARD] READ Transaction: ARADDR=0xb3daba6f, ARID=0x9, ARLEN=2, ARSIZE=2, ARBURST=1, RRESP=0x1, RDATA=0x0, RLAST=0xx
UVM_INFO ./../UVME/agent/axi_monitor.sv(105) @ 325: uvm_test_top.env_inst.agent_inst.mon_inst [R_CHANNEL] RDATA=0xz, RRESP=0x1
UVM_INFO ./../UVME/env/axi_scoreboard.sv(94) @ 325: uvm_test_top.env_inst.sb [SCOREBOARD] READ Handshake: ARVALID=0xx, ARREADY=0xx, RVALID=x, RREADY=x
UVM_INFO ./../UVME/env/axi_scoreboard.sv(98) @ 325: uvm_test_top.env_inst.sb [SCOREBOARD] READ Transaction: ARADDR=0xb3daba6f, ARID=0x9, ARLEN=2, ARSIZE=2, ARBURST=1, RRESP=0x1, RDATA=0xz, RLAST=0xx
UVM_INFO ./../UVME/env/axi_scoreboard.sv(94) @ 325: uvm_test_top.env_inst.sb [SCOREBOARD] READ Handshake: ARVALID=0xx, ARREADY=0xx, RVALID=x, RREADY=x
UVM_INFO ./../UVME/env/axi_scoreboard.sv(98) @ 325: uvm_test_top.env_inst.sb [SCOREBOARD] READ Transaction: ARADDR=0xb3daba6f, ARID=0x9, ARLEN=2, ARSIZE=2, ARBURST=1, RRESP=0x1, RDATA=0xz, RLAST=0xx
UVM_INFO ./../UVME/agent/axi_monitor.sv(105) @ 335: uvm_test_top.env_inst.agent_inst.mon_inst [R_CHANNEL] RDATA=0xz, RRESP=0x1
UVM_INFO ./../UVME/env/axi_scoreboard.sv(94) @ 335: uvm_test_top.env_inst.sb [SCOREBOARD] READ Handshake: ARVALID=0xx, ARREADY=0xx, RVALID=x, RREADY=x
UVM_INFO ./../UVME/env/axi_scoreboard.sv(98) @ 335: uvm_test_top.env_inst.sb [SCOREBOARD] READ Transaction: ARADDR=0xb3daba6f, ARID=0x9, ARLEN=2, ARSIZE=2, ARBURST=1, RRESP=0x1, RDATA=0xz, RLAST=0xx
UVM_INFO ./../UVME/env/axi_scoreboard.sv(94) @ 335: uvm_test_top.env_inst.sb [SCOREBOARD] READ Handshake: ARVALID=0xx, ARREADY=0xx, RVALID=x, RREADY=x
UVM_INFO ./../UVME/env/axi_scoreboard.sv(98) @ 335: uvm_test_top.env_inst.sb [SCOREBOARD] READ Transaction: ARADDR=0xb3daba6f, ARID=0x9, ARLEN=2, ARSIZE=2, ARBURST=1, RRESP=0x1, RDATA=0xz, RLAST=0xx
UVM_INFO ./../UVME/sequence/axi_multiple_outstanding_address_seq.sv(147) @ 335: uvm_test_top.env_inst.agent_inst.seqr_inst@@multiple_outstanding_address_inst [i] i value = 0
UVM_INFO ./../UVME/agent/axi_monitor.sv(93) @ 365: uvm_test_top.env_inst.agent_inst.mon_inst [AR_CHANNEL] ARID=0x68b1331c, ARADDR=0x9, ARLEN=2, ARSIZE=2, ARBURST=1
UVM_INFO ./../UVME/agent/axi_driver.sv(188) @ 365: uvm_test_top.env_inst.agent_inst.driver_inst [AXI_READ_DRIVER] ARREADY=1
UVM_INFO ./../UVME/agent/axi_monitor.sv(105) @ 385: uvm_test_top.env_inst.agent_inst.mon_inst [R_CHANNEL] RDATA=0x0, RRESP=0x2
UVM_INFO ./../UVME/env/axi_scoreboard.sv(94) @ 385: uvm_test_top.env_inst.sb [SCOREBOARD] READ Handshake: ARVALID=0xx, ARREADY=0xx, RVALID=x, RREADY=x
UVM_INFO ./../UVME/env/axi_scoreboard.sv(98) @ 385: uvm_test_top.env_inst.sb [SCOREBOARD] READ Transaction: ARADDR=0x68b1331c, ARID=0x9, ARLEN=2, ARSIZE=2, ARBURST=1, RRESP=0x2, RDATA=0x0, RLAST=0xx
UVM_INFO ./../UVME/env/axi_scoreboard.sv(94) @ 385: uvm_test_top.env_inst.sb [SCOREBOARD] READ Handshake: ARVALID=0xx, ARREADY=0xx, RVALID=x, RREADY=x
UVM_INFO ./../UVME/env/axi_scoreboard.sv(98) @ 385: uvm_test_top.env_inst.sb [SCOREBOARD] READ Transaction: ARADDR=0x68b1331c, ARID=0x9, ARLEN=2, ARSIZE=2, ARBURST=1, RRESP=0x2, RDATA=0x0, RLAST=0xx
UVM_INFO ./../UVME/agent/axi_monitor.sv(105) @ 405: uvm_test_top.env_inst.agent_inst.mon_inst [R_CHANNEL] RDATA=0x0, RRESP=0x1
UVM_INFO ./../UVME/env/axi_scoreboard.sv(94) @ 405: uvm_test_top.env_inst.sb [SCOREBOARD] READ Handshake: ARVALID=0xx, ARREADY=0xx, RVALID=x, RREADY=x
UVM_INFO ./../UVME/env/axi_scoreboard.sv(98) @ 405: uvm_test_top.env_inst.sb [SCOREBOARD] READ Transaction: ARADDR=0x68b1331c, ARID=0x9, ARLEN=2, ARSIZE=2, ARBURST=1, RRESP=0x1, RDATA=0x0, RLAST=0xx
UVM_INFO ./../UVME/env/axi_scoreboard.sv(94) @ 405: uvm_test_top.env_inst.sb [SCOREBOARD] READ Handshake: ARVALID=0xx, ARREADY=0xx, RVALID=x, RREADY=x
UVM_INFO ./../UVME/env/axi_scoreboard.sv(98) @ 405: uvm_test_top.env_inst.sb [SCOREBOARD] READ Transaction: ARADDR=0x68b1331c, ARID=0x9, ARLEN=2, ARSIZE=2, ARBURST=1, RRESP=0x1, RDATA=0x0, RLAST=0xx
UVM_INFO ./../UVME/agent/axi_monitor.sv(105) @ 415: uvm_test_top.env_inst.agent_inst.mon_inst [R_CHANNEL] RDATA=0xz, RRESP=0x1
UVM_INFO ./../UVME/env/axi_scoreboard.sv(94) @ 415: uvm_test_top.env_inst.sb [SCOREBOARD] READ Handshake: ARVALID=0xx, ARREADY=0xx, RVALID=x, RREADY=x
UVM_INFO ./../UVME/env/axi_scoreboard.sv(98) @ 415: uvm_test_top.env_inst.sb [SCOREBOARD] READ Transaction: ARADDR=0x68b1331c, ARID=0x9, ARLEN=2, ARSIZE=2, ARBURST=1, RRESP=0x1, RDATA=0xz, RLAST=0xx
UVM_INFO ./../UVME/env/axi_scoreboard.sv(94) @ 415: uvm_test_top.env_inst.sb [SCOREBOARD] READ Handshake: ARVALID=0xx, ARREADY=0xx, RVALID=x, RREADY=x
UVM_INFO ./../UVME/env/axi_scoreboard.sv(98) @ 415: uvm_test_top.env_inst.sb [SCOREBOARD] READ Transaction: ARADDR=0x68b1331c, ARID=0x9, ARLEN=2, ARSIZE=2, ARBURST=1, RRESP=0x1, RDATA=0xz, RLAST=0xx
UVM_INFO ./../UVME/agent/axi_monitor.sv(105) @ 425: uvm_test_top.env_inst.agent_inst.mon_inst [R_CHANNEL] RDATA=0xz, RRESP=0x1
UVM_INFO ./../UVME/env/axi_scoreboard.sv(94) @ 425: uvm_test_top.env_inst.sb [SCOREBOARD] READ Handshake: ARVALID=0xx, ARREADY=0xx, RVALID=x, RREADY=x
UVM_INFO ./../UVME/env/axi_scoreboard.sv(98) @ 425: uvm_test_top.env_inst.sb [SCOREBOARD] READ Transaction: ARADDR=0x68b1331c, ARID=0x9, ARLEN=2, ARSIZE=2, ARBURST=1, RRESP=0x1, RDATA=0xz, RLAST=0xx
UVM_INFO ./../UVME/env/axi_scoreboard.sv(94) @ 425: uvm_test_top.env_inst.sb [SCOREBOARD] READ Handshake: ARVALID=0xx, ARREADY=0xx, RVALID=x, RREADY=x
UVM_INFO ./../UVME/env/axi_scoreboard.sv(98) @ 425: uvm_test_top.env_inst.sb [SCOREBOARD] READ Transaction: ARADDR=0x68b1331c, ARID=0x9, ARLEN=2, ARSIZE=2, ARBURST=1, RRESP=0x1, RDATA=0xz, RLAST=0xx
UVM_INFO ./../UVME/sequence/axi_multiple_outstanding_address_seq.sv(147) @ 425: uvm_test_top.env_inst.agent_inst.seqr_inst@@multiple_outstanding_address_inst [i] i value = 1
UVM_INFO ./../UVME/agent/axi_monitor.sv(93) @ 455: uvm_test_top.env_inst.agent_inst.mon_inst [AR_CHANNEL] ARID=0xc33c5332, ARADDR=0x8, ARLEN=2, ARSIZE=2, ARBURST=1
UVM_INFO ./../UVME/agent/axi_driver.sv(188) @ 455: uvm_test_top.env_inst.agent_inst.driver_inst [AXI_READ_DRIVER] ARREADY=1
UVM_INFO ./../UVME/agent/axi_monitor.sv(105) @ 475: uvm_test_top.env_inst.agent_inst.mon_inst [R_CHANNEL] RDATA=0x0, RRESP=0x1
UVM_INFO ./../UVME/env/axi_scoreboard.sv(94) @ 475: uvm_test_top.env_inst.sb [SCOREBOARD] READ Handshake: ARVALID=0xx, ARREADY=0xx, RVALID=x, RREADY=x
UVM_INFO ./../UVME/env/axi_scoreboard.sv(98) @ 475: uvm_test_top.env_inst.sb [SCOREBOARD] READ Transaction: ARADDR=0xc33c5332, ARID=0x8, ARLEN=2, ARSIZE=2, ARBURST=1, RRESP=0x1, RDATA=0x0, RLAST=0xx
UVM_INFO ./../UVME/env/axi_scoreboard.sv(94) @ 475: uvm_test_top.env_inst.sb [SCOREBOARD] READ Handshake: ARVALID=0xx, ARREADY=0xx, RVALID=x, RREADY=x
UVM_INFO ./../UVME/env/axi_scoreboard.sv(98) @ 475: uvm_test_top.env_inst.sb [SCOREBOARD] READ Transaction: ARADDR=0xc33c5332, ARID=0x8, ARLEN=2, ARSIZE=2, ARBURST=1, RRESP=0x1, RDATA=0x0, RLAST=0xx
UVM_INFO ./../UVME/agent/axi_monitor.sv(105) @ 495: uvm_test_top.env_inst.agent_inst.mon_inst [R_CHANNEL] RDATA=0x0, RRESP=0x2
UVM_INFO ./../UVME/env/axi_scoreboard.sv(94) @ 495: uvm_test_top.env_inst.sb [SCOREBOARD] READ Handshake: ARVALID=0xx, ARREADY=0xx, RVALID=x, RREADY=x
UVM_INFO ./../UVME/env/axi_scoreboard.sv(98) @ 495: uvm_test_top.env_inst.sb [SCOREBOARD] READ Transaction: ARADDR=0xc33c5332, ARID=0x8, ARLEN=2, ARSIZE=2, ARBURST=1, RRESP=0x2, RDATA=0x0, RLAST=0xx
UVM_INFO ./../UVME/env/axi_scoreboard.sv(94) @ 495: uvm_test_top.env_inst.sb [SCOREBOARD] READ Handshake: ARVALID=0xx, ARREADY=0xx, RVALID=x, RREADY=x
UVM_INFO ./../UVME/env/axi_scoreboard.sv(98) @ 495: uvm_test_top.env_inst.sb [SCOREBOARD] READ Transaction: ARADDR=0xc33c5332, ARID=0x8, ARLEN=2, ARSIZE=2, ARBURST=1, RRESP=0x2, RDATA=0x0, RLAST=0xx
UVM_INFO ./../UVME/agent/axi_monitor.sv(105) @ 505: uvm_test_top.env_inst.agent_inst.mon_inst [R_CHANNEL] RDATA=0xz, RRESP=0x2
UVM_INFO ./../UVME/env/axi_scoreboard.sv(94) @ 505: uvm_test_top.env_inst.sb [SCOREBOARD] READ Handshake: ARVALID=0xx, ARREADY=0xx, RVALID=x, RREADY=x
UVM_INFO ./../UVME/env/axi_scoreboard.sv(98) @ 505: uvm_test_top.env_inst.sb [SCOREBOARD] READ Transaction: ARADDR=0xc33c5332, ARID=0x8, ARLEN=2, ARSIZE=2, ARBURST=1, RRESP=0x2, RDATA=0xz, RLAST=0xx
UVM_INFO ./../UVME/env/axi_scoreboard.sv(94) @ 505: uvm_test_top.env_inst.sb [SCOREBOARD] READ Handshake: ARVALID=0xx, ARREADY=0xx, RVALID=x, RREADY=x
UVM_INFO ./../UVME/env/axi_scoreboard.sv(98) @ 505: uvm_test_top.env_inst.sb [SCOREBOARD] READ Transaction: ARADDR=0xc33c5332, ARID=0x8, ARLEN=2, ARSIZE=2, ARBURST=1, RRESP=0x2, RDATA=0xz, RLAST=0xx
UVM_INFO ./../UVME/agent/axi_monitor.sv(105) @ 515: uvm_test_top.env_inst.agent_inst.mon_inst [R_CHANNEL] RDATA=0xz, RRESP=0x0
UVM_INFO ./../UVME/env/axi_scoreboard.sv(94) @ 515: uvm_test_top.env_inst.sb [SCOREBOARD] READ Handshake: ARVALID=0xx, ARREADY=0xx, RVALID=x, RREADY=x
UVM_INFO ./../UVME/env/axi_scoreboard.sv(98) @ 515: uvm_test_top.env_inst.sb [SCOREBOARD] READ Transaction: ARADDR=0xc33c5332, ARID=0x8, ARLEN=2, ARSIZE=2, ARBURST=1, RRESP=0x0, RDATA=0xz, RLAST=0xx
UVM_INFO ./../UVME/env/axi_scoreboard.sv(94) @ 515: uvm_test_top.env_inst.sb [SCOREBOARD] READ Handshake: ARVALID=0xx, ARREADY=0xx, RVALID=x, RREADY=x
UVM_INFO ./../UVME/env/axi_scoreboard.sv(98) @ 515: uvm_test_top.env_inst.sb [SCOREBOARD] READ Transaction: ARADDR=0xc33c5332, ARID=0x8, ARLEN=2, ARSIZE=2, ARBURST=1, RRESP=0x0, RDATA=0xz, RLAST=0xx
UVM_INFO ./../UVME/sequence/axi_multiple_outstanding_address_seq.sv(147) @ 515: uvm_test_top.env_inst.agent_inst.seqr_inst@@multiple_outstanding_address_inst [i] i value = 2
UVM_INFO ./../UVME/test/axi_multiple_outstanding_address_test.sv(43) @ 515: uvm_test_top [axi_multiple_outstanding_address_test] increment_burst scenario 28 is competed
UVM_INFO /tools/cadence/INCISIVE152/tools/methodology/UVM/CDNS-1.1d/sv/src/base/uvm_objection.svh(1268) @ 1515: reporter [TEST_DONE] 'run' phase is ready to proceed to the 'extract' phase

--- UVM Report catcher Summary ---


Number of demoted UVM_FATAL reports  :    0
Number of demoted UVM_ERROR reports  :    0
Number of demoted UVM_WARNING reports:    0
Number of caught UVM_FATAL reports   :    0
Number of caught UVM_ERROR reports   :    0
Number of caught UVM_WARNING reports :    0

--- UVM Report Summary ---

** Report counts by severity
UVM_INFO :  145
UVM_WARNING :    0
UVM_ERROR :    0
UVM_FATAL :    0
** Report counts by id
[AR_CHANNEL]     3
[AW_CHANNEL]     3
[AXI_READ_DRIVER]     3
[AXI_WRITE_DRIVER]     3
[B_CHANNEL]     3
[Driver_class]     2
[RNTST]     1
[R_CHANNEL]    12
[SCOREBOARD]    60
[SEQ]    12
[Sequencer_class]     1
[TEST_DONE]     1
[UVMTOP]     1
[W_CHANNEL]    18
[agent_class]     3
[axi_multiple_outstanding_address_seq]     3
[axi_multiple_outstanding_address_test]     6
[env_class]     3
[i]     6
[uvm_test_top]     1
Simulation complete via $finish(1) at time 1515 NS + 45
/tools/cadence/INCISIVE152/tools/methodology/UVM/CDNS-1.1d/sv/src/base/uvm_root.svh:457     $finish;
ncsim> exit
TOOL:	irun(64)	15.20-s051: Exiting on Mar 15, 2019 at 07:02:51 IST  (total: 00:00:04)
